! Created Thu Jan 12 15:33:20 2023
# hz S ma R 50
! 10 Port Network Data from SP1.SP block
! freq  magS1_1  angS1_1  magS1_2  angS1_2  magS1_3  angS1_3  magS1_4  angS1_4  
!       magS1_5  angS1_5  magS1_6  angS1_6  magS1_7  angS1_7  magS1_8  angS1_8  
!       magS1_9  angS1_9  magS1_10  angS1_10  
!       magS2_1  angS2_1  magS2_2  angS2_2  
!       magS2_3  angS2_3  magS2_4  angS2_4  magS2_5  angS2_5  magS2_6  angS2_6  
!       magS2_7  angS2_7  magS2_8  angS2_8  magS2_9  angS2_9  magS2_10  angS2_10  
!       magS3_1  angS3_1  magS3_2  angS3_2  magS3_3  angS3_3  magS3_4  angS3_4  
!       magS3_5  angS3_5  magS3_6  angS3_6  magS3_7  angS3_7  magS3_8  angS3_8  
!       magS3_9  angS3_9  magS3_10  angS3_10  
!       magS4_1  angS4_1  magS4_2  angS4_2  
!       magS4_3  angS4_3  magS4_4  angS4_4  magS4_5  angS4_5  magS4_6  angS4_6  
!       magS4_7  angS4_7  magS4_8  angS4_8  magS4_9  angS4_9  magS4_10  angS4_10  
!       magS5_1  angS5_1  magS5_2  angS5_2  magS5_3  angS5_3  magS5_4  angS5_4  
!       magS5_5  angS5_5  magS5_6  angS5_6  magS5_7  angS5_7  magS5_8  angS5_8  
!       magS5_9  angS5_9  magS5_10  angS5_10  
!       magS6_1  angS6_1  magS6_2  angS6_2  
!       magS6_3  angS6_3  magS6_4  angS6_4  magS6_5  angS6_5  magS6_6  angS6_6  
!       magS6_7  angS6_7  magS6_8  angS6_8  magS6_9  angS6_9  magS6_10  angS6_10  
!       magS7_1  angS7_1  magS7_2  angS7_2  magS7_3  angS7_3  magS7_4  angS7_4  
!       magS7_5  angS7_5  magS7_6  angS7_6  magS7_7  angS7_7  magS7_8  angS7_8  
!       magS7_9  angS7_9  magS7_10  angS7_10  
!       magS8_1  angS8_1  magS8_2  angS8_2  
!       magS8_3  angS8_3  magS8_4  angS8_4  magS8_5  angS8_5  magS8_6  angS8_6  
!       magS8_7  angS8_7  magS8_8  angS8_8  magS8_9  angS8_9  magS8_10  angS8_10  
!       magS9_1  angS9_1  magS9_2  angS9_2  magS9_3  angS9_3  magS9_4  angS9_4  
!       magS9_5  angS9_5  magS9_6  angS9_6  magS9_7  angS9_7  magS9_8  angS9_8  
!       magS9_9  angS9_9  magS9_10  angS9_10  
!       magS10_1  angS10_1  magS10_2  angS10_2  
!       magS10_3  angS10_3  magS10_4  angS10_4  magS10_5  angS10_5  magS10_6  angS10_6  
!       magS10_7  angS10_7  magS10_8  angS10_8  magS10_9  angS10_9  magS10_10  angS10_10  
!     
             1e+09     0.00535060975        -47.3026656        0.991942588        -42.5272241                  0                  0                  0                  0
                                0                  0                  0                  0                  0                  0                  0                  0
                                0                  0                  0                  0
                      0.991942588        -42.5272241      0.00535060975        -47.3026656                  0                  0                  0                  0
                                0                  0                  0                  0                  0                  0                  0                  0
                                0                  0                  0                  0
                                0                  0                  0                  0        0.997232468        -43.0163294                  0                  0
                                0                  0                  0                  0                  0                  0                  0                  0
                                0                  0                  0                  0
                                0                  0                  0                  0                  0                  0      0.00293036411         117.467924
                                0                  0                  0                  0                  0                  0                  0                  0
                                0                  0                  0                  0
                                0                  0                  0                  0                  0                  0                  0                  0
                     0.0251532072         -142.55359        0.987122748        -68.1401142                  0                  0                  0                  0
                                0                  0                  0                  0
                                0                  0                  0                  0                  0                  0                  0                  0
                      0.987122748        -68.1401142       0.0251532072         -142.55359                  0                  0                  0                  0
                                0                  0                  0                  0
                                0                  0                  0                  0                  0                  0                  0                  0
                                0                  0                  0                  0       0.0116656125        -111.365648        0.990151746        -52.4728048
                                0                  0                  0                  0
                                0                  0                  0                  0                  0                  0                  0                  0
                                0                  0                  0                  0        0.990151746        -52.4728048       0.0116656125        -111.365648
                                0                  0                  0                  0
                                0                  0                  0                  0                  0                  0                  0                  0
                                0                  0                  0                  0                  0                  0                  0                  0
                      0.376955449         -166.66563        0.912576615        -77.1213804
                                0                  0                  0                  0                  0                  0                  0                  0
                                0                  0                  0                  0                  0                  0                  0                  0
                      0.912576615        -77.1213804        0.376955449         -166.66563

           1.1e+09     0.00570180939        -64.7873248        0.991462516        -46.7606064                  0                  0                  0                  0
                                0                  0                  0                  0                  0                  0                  0                  0
                                0                  0                  0                  0
                      0.991462516        -46.7606064      0.00570180939        -64.7873248                  0                  0                  0                  0
                                0                  0                  0                  0                  0                  0                  0                  0
                                0                  0                  0                  0
                                0                  0                  0                  0        0.996836371         -47.372782                  0                  0
                                0                  0                  0                  0                  0                  0                  0                  0
                                0                  0                  0                  0
                                0                  0                  0                  0                  0                  0      0.00367239869         125.270302
                                0                  0                  0                  0                  0                  0                  0                  0
                                0                  0                  0                  0
                                0                  0                  0                  0                  0                  0                  0                  0
                     0.0293008772        -151.932239        0.986229124        -74.9235059                  0                  0                  0                  0
                                0                  0                  0                  0
                                0                  0                  0                  0                  0                  0                  0                  0
                      0.986229124        -74.9235059       0.0293008772        -151.932239                  0                  0                  0                  0
                                0                  0                  0                  0
                                0                  0                  0                  0                  0                  0                  0                  0
                                0                  0                  0                  0        0.013991871        -122.111017        0.989530664        -57.6972995
                                0                  0                  0                  0
                                0                  0                  0                  0                  0                  0                  0                  0
                                0                  0                  0                  0        0.989530664        -57.6972995        0.013991871        -122.111017
                                0                  0                  0                  0
                                0                  0                  0                  0                  0                  0                  0                  0
                                0                  0                  0                  0                  0                  0                  0                  0
                      0.407126568        -174.068697        0.898429533        -84.4317445
                                0                  0                  0                  0                  0                  0                  0                  0
                                0                  0                  0                  0                  0                  0                  0                  0
                      0.898429533        -84.4317445        0.407126568        -174.068697

           1.2e+09     0.00641746456        -82.4901145        0.990994627        -50.9936027                  0                  0                  0                  0
                                0                  0                  0                  0                  0                  0                  0                  0
                                0                  0                  0                  0
                      0.990994627        -50.9936027      0.00641746456        -82.4901145                  0                  0                  0                  0
                                0                  0                  0                  0                  0                  0                  0                  0
                                0                  0                  0                  0
                                0                  0                  0                  0        0.996414651        -51.7445914                  0                  0
                                0                  0                  0                  0                  0                  0                  0                  0
                                0                  0                  0                  0
                                0                  0                  0                  0                  0                  0      0.00456631276         130.491406
                                0                  0                  0                  0                  0                  0                  0                  0
                                0                  0                  0                  0
                                0                  0                  0                  0                  0                  0                  0                  0
                     0.0337598116        -160.891047         0.98532553        -81.7051137                  0                  0                  0                  0
                                0                  0                  0                  0
                                0                  0                  0                  0                  0                  0                  0                  0
                       0.98532553        -81.7051137       0.0337598116        -160.891047                  0                  0                  0                  0
                                0                  0                  0                  0
                                0                  0                  0                  0                  0                  0                  0                  0
                                0                  0                  0                  0       0.0166920834        -131.845849        0.988913724        -62.9212794
                                0                  0                  0                  0
                                0                  0                  0                  0                  0                  0                  0                  0
                                0                  0                  0                  0        0.988913724        -62.9212794       0.0166920834        -131.845849
                                0                  0                  0                  0
                                0                  0                  0                  0                  0                  0                  0                  0
                                0                  0                  0                  0                  0                  0                  0                  0
                      0.435488628         178.630635        0.883959674        -91.6466738
                                0                  0                  0                  0                  0                  0                  0                  0
                                0                  0                  0                  0                  0                  0                  0                  0
                      0.883959674        -91.6466738        0.435488628         178.630635

           1.3e+09     0.00757163477        -98.8154225        0.990535443        -55.2263989                  0                  0                  0                  0
                                0                  0                  0                  0                  0                  0                  0                  0
                                0                  0                  0                  0
                      0.990535443        -55.2263989      0.00757163477        -98.8154225                  0                  0                  0                  0
                                0                  0                  0                  0                  0                  0                  0                  0
                                0                  0                  0                  0
                                0                  0                  0                  0        0.995967112        -56.1325444                  0                  0
                                0                  0                  0                  0                  0                  0                  0                  0
                                0                  0                  0                  0
                                0                  0                  0                  0                  0                  0      0.00559279591         133.893549
                                0                  0                  0                  0                  0                  0                  0                  0
                                0                  0                  0                  0
                                0                  0                  0                  0                  0                  0                  0                  0
                      0.038490161        -169.503974        0.984407022        -88.4847622                  0                  0                  0                  0
                                0                  0                  0                  0
                                0                  0                  0                  0                  0                  0                  0                  0
                      0.984407022        -88.4847622        0.038490161        -169.503974                  0                  0                  0                  0
                                0                  0                  0                  0
                                0                  0                  0                  0                  0                  0                  0                  0
                                0                  0                  0                  0       0.0197606026        -140.743828        0.988295468        -68.1448635
                                0                  0                  0                  0
                                0                  0                  0                  0                  0                  0                  0                  0
                                0                  0                  0                  0        0.988295468        -68.1448635       0.0197606026        -140.743828
                                0                  0                  0                  0
                                0                  0                  0                  0                  0                  0                  0                  0
                                0                  0                  0                  0                  0                  0                  0                  0
                      0.462019728         171.434109        0.869348497        -98.7636895
                                0                  0                  0                  0                  0                  0                  0                  0
                                0                  0                  0                  0                  0                  0                  0                  0
                      0.869348497        -98.7636895        0.462019728         171.434109

           1.4e+09     0.00917652354         -112.94516         0.99008158        -59.4591548                  0                  0                  0                  0
                                0                  0                  0                  0                  0                  0                  0                  0
                                0                  0                  0                  0
                       0.99008158        -59.4591548      0.00917652354         -112.94516                  0                  0                  0                  0
                                0                  0                  0                  0                  0                  0                  0                  0
