# MHz S RI R 50 
! S-Parameters data 
! Freq   reS11   imS11   reS21   imS21   reS12   imS12   reS22   imS22 
0.3000000000           0.9509277344           0.1729736328           0.0512542725           -0.1750793457          0.0508804321           -0.1745681763          0.9500122070           0.1734008789           
0.5485000000           0.9740600586           0.0969238281           0.0266113281           -0.0990104675          0.0263938904           -0.0987281799          0.9738769531           0.0973510742           
0.7970000000           0.9804077148           0.0659790039           0.0203628540           -0.0682678223          0.0203437805           -0.0679931641          0.9797363281           0.0661621094           
1.0455000000           0.9824218750           0.0485229492           0.0182628632           -0.0514297485          0.0182018280           -0.0513610840          0.9820556641           0.0490722656           
1.2940000000           0.9832763672           0.0376586914           0.0174522400           -0.0410652161          0.0174446106           -0.0409507751          0.9830322266           0.0378417969           
1.5425000000           0.9832153320           0.0298461914           0.0172977448           -0.0339622498          0.0172157288           -0.0339870453          0.9835205078           0.0307617188           
1.7910000000           0.9832153320           0.0245361328           0.0172624588           -0.0290231705          0.0172548294           -0.0290231705          0.9830322266           0.0246582031           
2.0395000000           0.9832763672           0.0205078125           0.0172967911           -0.0253229141          0.0172939301           -0.0252447128          0.9826049805           0.0204467773           
2.2880000000           0.9830932617           0.0170898438           0.0173683167           -0.0224647522          0.0173225403           -0.0223827362          0.9824829102           0.0174560547           
2.5365000000           0.9829101563           0.0144042969           0.0173854828           -0.0201005936          0.0173664093           -0.0201101303          0.9822998047           0.0148925781           
2.7850000000           0.9827880859           0.0119018555           0.0173835754           -0.0182027817          0.0173578262           -0.0182228088          0.9821777344           0.0123291016           
3.0335000000           0.9827880859           0.0099487305           0.0175285339           -0.0167102814          0.0175342560           -0.0166959763          0.9823913574           0.0106506348           
3.2820000000           0.9826354980           0.0080261230           0.0174732208           -0.0153484344          0.0174846649           -0.0153875351          0.9824829102           0.0089416504           
3.5305000000           0.9825744629           0.0065917969           0.0175380707           -0.0142784119          0.0175218582           -0.0142631531          0.9821777344           0.0073547363           
3.7790000000           0.9826354980           0.0052490234           0.0175771713           -0.0133008957          0.0175151825           -0.0132427216          0.9821166992           0.0058288574           
4.0275000000           0.9825744629           0.0038146973           0.0175447464           -0.0124549866          0.0175237656           -0.0124387741          0.9823303223           0.0043640137           
4.2760000000           0.9822692871           0.0026245117           0.0176086426           -0.0117549896          0.0175542831           -0.0116710663          0.9821166992           0.0034179688           
4.5245000000           0.9822692871           0.0014343262           0.0175628662           -0.0110273361          0.0176038742           -0.0110454559          0.9822692871           0.0022583008           
4.7730000000           0.9823608398           0.0003967285           0.0176000595           -0.0104684830          0.0175962448           -0.0104522705          0.9821777344           0.0015563965           
5.0215000000           0.9823913574           -0.0005493164          0.0175542831           -0.0099124908          0.0175905228           -0.0099592209          0.9820251465           0.0002136230           
5.2700000000           0.9821777344           -0.0012817383          0.0176181793           -0.0094356537          0.0175361633           -0.0094814301          0.9819946289           -0.0003967285          
5.5185000000           0.9820861816           -0.0022583008          0.0176277161           -0.0090284348          0.0176010132           -0.0090217590          0.9821472168           -0.0013427734          
5.7670000000           0.9820861816           -0.0030517578          0.0176458359           -0.0086441040          0.0175180435           -0.0087032318          0.9820861816           -0.0026245117          
6.0155000000           0.9820556641           -0.0037841797          0.0175514221           -0.0083379745          0.0175333023           -0.0083255768          0.9818115234           -0.0026245117          
6.2640000000           0.9824218750           -0.0045166016          0.0175361633           -0.0080337524          0.0175151825           -0.0080642700          0.9820251465           -0.0037841797          
6.5125000000           0.9820861816           -0.0051879883          0.0174589157           -0.0077047348          0.0175170898           -0.0077333450          0.9820861816           -0.0044250488          
6.7610000000           0.9821472168           -0.0061950684          0.0175199509           -0.0074205399          0.0173940659           -0.0074386597          0.9817199707           -0.0051574707          
7.0095000000           0.9821472168           -0.0068054199          0.0174446106           -0.0072278976          0.0174350739           -0.0071907043          0.9820861816           -0.0061035156          
7.2580000000           0.9822082520           -0.0076599121          0.0174322128           -0.0069828033          0.0173892975           -0.0069503784          0.9821166992           -0.0065917969          
7.5065000000           0.9821777344           -0.0083312988          0.0173683167           -0.0067653656          0.0173292160           -0.0067214966          0.9818725586           -0.0070800781          
7.7550000000           0.9821777344           -0.0089111328          0.0172300339           -0.0065374374          0.0172777176           -0.0065135956          0.9819335938           -0.0079345703          
8.0035000000           0.9823608398           -0.0094909668          0.0172481537           -0.0063037872          0.0171842575           -0.0063695908          0.9819335938           -0.0088500977          
8.2520000000           0.9822998047           -0.0102233887          0.0172080994           -0.0061635971          0.0171957016           -0.0062198639          0.9819946289           -0.0092163086          
8.5005000000           0.9822998047           -0.0109252930          0.0171251297           -0.0059251785          0.0170888901           -0.0060052872          0.9818725586           -0.0094909668          
8.7490000000           0.9823303223           -0.0115356445          0.0171232224           -0.0057725906          0.0170879364           -0.0058488846          0.9821777344           -0.0099792480          
8.9975000000           0.9824523926           -0.0120239258          0.0170841217           -0.0056495667          0.0170116425           -0.0056495667          0.9823913574           -0.0106506348          
9.2460000000           0.9826660156           -0.0128784180          0.0168838501           -0.0055351257          0.0169410706           -0.0054883957          0.9824829102           -0.0113830566          
9.4945000000           0.9827270508           -0.0133056641          0.0169334412           -0.0053501129          0.0168619156           -0.0053529739          0.9822692871           -0.0119628906          
9.7430000000           0.9825439453           -0.0136718750          0.0168256760           -0.0052223206          0.0167798996           -0.0052032471          0.9826049805           -0.0126037598          
9.9915000000           0.9826660156           -0.0143432617          0.0167188644           -0.0050706863          0.0166969299           -0.0050706863          0.9825134277           -0.0129394531          
10.2400000000          0.9826965332           -0.0152587891          0.0166416168           -0.0049343109          0.0166168213           -0.0049390793          0.9826354980           -0.0138244629          
10.4885000000          0.9825439453           -0.0159301758          0.0165472031           -0.0048122406          0.0165405273           -0.0047998428          0.9826049805           -0.0140686035          
10.7370000000          0.9828186035           -0.0162048340          0.0164690018           -0.0046653748          0.0164461136           -0.0046701431          0.9827575684           -0.0149536133          
10.9855000000          0.9833374023           -0.0169067383          0.0163717270           -0.0045375824          0.0163555145           -0.0045299530          0.9827575684           -0.0155029297          
11.2340000000          0.9830627441           -0.0178833008          0.0162906647           -0.0044164658          0.0162658691           -0.0044059753          0.9828796387           -0.0160522461          
11.4825000000          0.9830017090           -0.0181579590          0.0161943436           -0.0042753220          0.0161705017           -0.0042629242          0.9826354980           -0.0167236328          
11.7310000000          0.9830017090           -0.0190429688          0.0160903931           -0.0041494370          0.0160827637           -0.0041475296          0.9832458496           -0.0174560547          
11.9795000000          0.9833068848           -0.0194396973          0.0159921646           -0.0040159225          0.0159940720           -0.0040159225          0.9829711914           -0.0176391602          
12.2280000000          0.9835205078           -0.0200195313          0.0159034729           -0.0038805008          0.0158729553           -0.0038728714          0.9827575684           -0.0182189941          
12.4765000000          0.9833068848           -0.0208740234          0.0158052444           -0.0037479401          0.0157823563           -0.0037317276          0.9832458496           -0.0187988281          
12.7250000000          0.9834594727           -0.0216674805          0.0157089233           -0.0036144257          0.0156993866           -0.0035915375          0.9828186035           -0.0190734863          
12.9735000000          0.9835510254           -0.0219421387          0.0156316757           -0.0034694672          0.0156087875           -0.0034642220          0.9831542969           -0.0206298828          
13.2220000000          0.9837036133           -0.0226440430          0.0155353546           -0.0033206940          0.0155277252           -0.0033173561          0.9835510254           -0.0205688477          
13.4705000000          0.9836120605           -0.0229187012          0.0154609680           -0.0031914711          0.0154304504           -0.0031967163          0.9833679199           -0.0211486816          
13.7190000000          0.9833679199           -0.0237731934          0.0153598785           -0.0030550957          0.0153446198           -0.0030460358          0.9833679199           -0.0218811035          
13.9675000000          0.9837951660           -0.0243835449          0.0152783394           -0.0029320717          0.0152616501           -0.0029163361          0.9837646484           -0.0227661133          
14.2160000000          0.9836730957           -0.0250854492          0.0151948929           -0.0027875900          0.0151820183           -0.0027742386          0.9835510254           -0.0228881836          
14.4645000000          0.9837341309           -0.0254211426          0.0151152611           -0.0026388168          0.0151009560           -0.0026459694          0.9839782715           -0.0237731934          
14.7130000000          0.9837951660           -0.0261535645          0.0150284767           -0.0024909973          0.0150246620           -0.0025110245          0.9837951660           -0.0243225098          
14.9615000000          0.9839172363           -0.0267639160          0.0149621964           -0.0023608208          0.0149397850           -0.0023741722          0.9838562012           -0.0250244141          
15.2100000000          0.9841003418           -0.0274658203          0.0148763657           -0.0022268295          0.0148572922           -0.0022277832          0.9838562012           -0.0252075195          
15.4585000000          0.9840087891           -0.0282897949          0.0148057938           -0.0020995140          0.0147862434           -0.0020899773          0.9834899902           -0.0256347656          
15.7070000000          0.9844970703           -0.0283508301          0.0147318840           -0.0019502640          0.0147142410           -0.0019512177          0.9836425781           -0.0265502930          
15.9555000000          0.9836120605           -0.0290832520          0.0146517754           -0.0017991066          0.0146384239           -0.0018167496          0.9841003418           -0.0265502930          
16.2040000000          0.9842224121           -0.0297546387          0.0145621300           -0.0017232895          0.0145335197           -0.0016756058          0.9838562012           -0.0272827148          
16.4525000000          0.9841308594           -0.0305175781          0.0144796371           -0.0014748573          0.0144519806           -0.0014586449          0.9840393066           -0.0278015137          
16.7010000000          0.9841918945           -0.0313415527          0.0143980980           -0.0013504028          0.0143465996           -0.0013418198          0.9840087891           -0.0284729004          
16.9495000000          0.9843444824           -0.0318603516          0.0143280029           -0.0012378693          0.0143380165           -0.0012779236          0.9841003418           -0.0292358398          
17.1980000000          0.9841003418           -0.0325622559          0.0142736435           -0.0011286736          0.0142912865           -0.0010614395          0.9842224121           -0.0297241211          
17.4465000000          0.9843444824           -0.0331420898          0.0142116547           -0.0009713173          0.0141482353           -0.0009202957          0.9843750000           -0.0303039551          
17.6950000000          0.9844665527           -0.0335998535          0.0141477585           -0.0008835793          0.0141420364           -0.0008597374          0.9842224121           -0.0307922363          
17.9435000000          0.9845275879           -0.0343627930          0.0140576363           -0.0007081032          0.0140419006           -0.0007324219          0.9843139648           -0.0315551758          
18.1920000000          0.9843444824           -0.0347595215          0.0140156746           -0.0005760193          0.0140619278           -0.0005936623          0.9844665527           -0.0318603516          
18.4405000000          0.9842834473           -0.0355224609          0.0139746666           -0.0004539490          0.0139875412           -0.0004653931          0.9844665527           -0.0326843262          
18.6890000000          0.9844665527           -0.0361022949          0.0138535500           -0.0003476143          0.0138921738           -0.0003681183          0.9846801758           -0.0332641602          
18.9375000000          0.9845886230           -0.0369567871          0.0138373375           -0.0002522469          0.0137739182           -0.0001978874          0.9844970703           -0.0336914063          
19.1860000000          0.9843750000           -0.0373535156          0.0137734413           -0.0000824928          0.0136938095           -0.0000600815          0.9843139648           -0.0343017578          
19.4345000000          0.9844360352           -0.0379333496          0.0137062073           0.0001459122           0.0136885643           0.0001692772           0.9843750000           -0.0350036621          
19.6830000000          0.9845581055           -0.0384521484          0.0136156082           0.0003027916           0.0135970116           0.0003037453           0.9844970703           -0.0355834961          
19.9315000000          0.9845275879           -0.0390014648          0.0136418343           0.0004310608           0.0136418343           0.0004787445           0.9844055176           -0.0360717773          
20.1800000000          0.9846191406           -0.0397949219          0.0136103630           0.0005450249           0.0135359764           0.0006146431           0.9845886230           -0.0364685059          
20.4285000000          0.9847717285           -0.0406494141          0.0135760307           0.0006942749           0.0135588646           0.0006890297           0.9844665527           -0.0371704102          
20.6770000000          0.9848022461           -0.0411376953          0.0135045052           0.0008192062           0.0135188103           0.0008544922           0.9846191406           -0.0377807617          
20.9255000000          0.9846191406           -0.0417785645          0.0135211945           0.0009551048           0.0135254860           0.0009603500           0.9847412109           -0.0384521484          
21.1740000000          0.9848937988           -0.0422973633          0.0134544373           0.0011429787           0.0134902000           0.0011792183           0.9845886230           -0.0387268066          
21.4225000000          0.9848632813           -0.0428466797          0.0134410858           0.0012483597           0.0134096146           0.0012617111           0.9847106934           -0.0395202637          
21.6710000000          0.9847412109           -0.0435180664          0.0134100914           0.0013217926           0.0134081841           0.0012955666           0.9846191406           -0.0398559570          
21.9195000000          0.9848327637           -0.0442199707          0.0132999420           0.0014863014           0.0133290291           0.0014228821           0.9847412109           -0.0406188965          
22.1680000000          0.9847717285           -0.0447387695          0.0133090019           0.0015878677           0.0132837296           0.0016140938           0.9847412109           -0.0411071777          
22.4165000000          0.9847717285           -0.0453491211          0.0132789612           0.0016913414           0.0133142471           0.0017361641           0.9848632813           -0.0417175293          
22.6650000000          0.9848327637           -0.0460510254          0.0132250786           0.0018639565           0.0132083893           0.0018796921           0.9845886230           -0.0422973633          
22.9135000000          0.9846191406           -0.0466613770          0.0132794380           0.0020389557           0.0133056641           0.0021128654           0.9846801758           -0.0430603027          
23.1620000000          0.9848022461           -0.0473022461          0.0132369995           0.0020976067           0.0131778717           0.0021348000           0.9848632813           -0.0434265137          
23.4105000000          0.9848022461           -0.0479125977          0.0131812096           0.0022268295           0.0131349564           0.0022435188           0.9848327637           -0.0440979004          
23.6590000000          0.9848327637           -0.0483703613          0.0131363869           0.0023536682           0.0131282806           0.0023598671           0.9847717285           -0.0445861816          
