# MHz S RI R 50 
! S-Parameters data 
! Freq   reS11   imS11   reS21   imS21   reS12   imS12   reS22   imS22 
1.0000000000           0.9179687500           0.1709594727           0.0837173462           -0.1729507446          0.0832138062           -0.1724777222          0.9171752930           0.1716308594           
1.1450000000           0.9285278320           0.1542968750           0.0727005005           -0.1558456421          0.0723876953           -0.1555175781          0.9281005859           0.1546630859           
1.2900000000           0.9368286133           0.1399536133           0.0645141602           -0.1417388916          0.0642318726           -0.1413574219          0.9360961914           0.1402587891           
1.4350000000           0.9429321289           0.1283569336           0.0581207275           -0.1297607422          0.0578918457           -0.1294784546          0.9425659180           0.1285400391           
1.5800000000           0.9476318359           0.1180419922           0.0531234741           -0.1194572449          0.0530967712           -0.1193237305          0.9474487305           0.1178588867           
1.7250000000           0.9515991211           0.1090087891           0.0493392944           -0.1106605530          0.0492324829           -0.1104927063          0.9512329102           0.1094970703           
1.8700000000           0.9545898438           0.1013793945           0.0461235046           -0.1030921936          0.0461425781           -0.1029357910          0.9542846680           0.1017456055           
2.0150000000           0.9570922852           0.0947265625           0.0436744690           -0.0963363647          0.0435943604           -0.0962181091          0.9570312500           0.0949707031           
2.1600000000           0.9589843750           0.0887451172           0.0415611267           -0.0904388428          0.0415000916           -0.0902976990          0.9589233398           0.0889282227           
2.3050000000           0.9607543945           0.0835571289           0.0397987366           -0.0851898193          0.0397758484           -0.0851249695          0.9606323242           0.0838012695           
2.4500000000           0.9622192383           0.0787353516           0.0383834839           -0.0805435181          0.0383491516           -0.0804023743          0.9619750977           0.0792236328           
2.5950000000           0.9634399414           0.0745239258           0.0372390747           -0.0762596130          0.0370788574           -0.0762329102          0.9633789063           0.0747070313           
2.7400000000           0.9644165039           0.0708618164           0.0361289978           -0.0724868774          0.0360031128           -0.0724792480          0.9644165039           0.0708618164           
2.8850000000           0.9653930664           0.0673217773           0.0351715088           -0.0691108704          0.0350875854           -0.0690650940          0.9653320313           0.0672607422           
3.0300000000           0.9661865234           0.0641479492           0.0343055725           -0.0660133362          0.0343017578           -0.0659446716          0.9661254883           0.0641479492           
3.1750000000           0.9667358398           0.0612182617           0.0335960388           -0.0631980896          0.0335769653           -0.0631484985          0.9667968750           0.0613403320           
3.3200000000           0.9675292969           0.0586547852           0.0330219269           -0.0606174469          0.0329799652           -0.0605487823          0.9674072266           0.0587768555           
3.4650000000           0.9679565430           0.0563354492           0.0324192047           -0.0582180023          0.0324249268           -0.0581703186          0.9679565430           0.0561523438           
3.6100000000           0.9685668945           0.0538940430           0.0318984985           -0.0560455322          0.0318870544           -0.0559787750          0.9684448242           0.0538940430           
3.7550000000           0.9689331055           0.0518188477           0.0314235687           -0.0540294647          0.0314273834           -0.0539512634          0.9689331055           0.0520019531           
3.9000000000           0.9694824219           0.0499267578           0.0309791565           -0.0521144867          0.0309696198           -0.0520839691          0.9693603516           0.0499267578           
4.0450000000           0.9697265625           0.0482788086           0.0305957794           -0.0503654480          0.0305595398           -0.0503616333          0.9697265625           0.0481567383           
4.1900000000           0.9702148438           0.0465087891           0.0302257538           -0.0487480164          0.0302028656           -0.0487270355          0.9701538086           0.0466308594           
4.3350000000           0.9705810547           0.0449829102           0.0298480988           -0.0472221375          0.0298404694           -0.0471820831          0.9705200195           0.0448608398           
4.4800000000           0.9708862305           0.0435180664           0.0295047760           -0.0457611084          0.0295238495           -0.0457630157          0.9707641602           0.0435791016           
4.6250000000           0.9711303711           0.0420532227           0.0292034149           -0.0444374084          0.0291633606           -0.0443916321          0.9711303711           0.0419921875           
4.7700000000           0.9714355469           0.0407714844           0.0288848877           -0.0431747437          0.0288696289           -0.0431652069          0.9715576172           0.0406494141           
4.9150000000           0.9716796875           0.0394897461           0.0286140442           -0.0419960022          0.0285606384           -0.0419197083          0.9717407227           0.0394287109           
5.0600000000           0.9720458984           0.0382080078           0.0283546448           -0.0408306122          0.0282592773           -0.0407924652          0.9719238281           0.0383300781           
5.2050000000           0.9724731445           0.0371704102           0.0280361176           -0.0397281647          0.0279922485           -0.0397357941          0.9723510742           0.0369873047           
5.3500000000           0.9725952148           0.0360717773           0.0277309418           -0.0387134552          0.0277309418           -0.0387401581          0.9725341797           0.0360717773           
5.4950000000           0.9729003906           0.0349121094           0.0274944305           -0.0377140045          0.0274887085           -0.0377292633          0.9728393555           0.0347900391           
5.6400000000           0.9731140137           0.0340270996           0.0272712708           -0.0367984772          0.0272254944           -0.0367889404          0.9729614258           0.0341796875           
5.7850000000           0.9733581543           0.0330810547           0.0270366669           -0.0358982086          0.0270080566           -0.0359096527          0.9733581543           0.0332031250           
5.9300000000           0.9736633301           0.0321350098           0.0268077850           -0.0350341797          0.0267639160           -0.0350456238          0.9735107422           0.0321655273           
6.0750000000           0.9737548828           0.0312805176           0.0265522003           -0.0342483521          0.0265750885           -0.0342407227          0.9738769531           0.0314636230           
6.2200000000           0.9739074707           0.0304870605           0.0263500214           -0.0334300995          0.0263214111           -0.0334396362          0.9740600586           0.0304565430           
6.3650000000           0.9741516113           0.0296936035           0.0261573792           -0.0326480865          0.0261173248           -0.0326499939          0.9741210938           0.0296936035           
6.5100000000           0.9743652344           0.0289611816           0.0259666443           -0.0319175720          0.0258903503           -0.0319175720          0.9745788574           0.0287780762           
6.6550000000           0.9746398926           0.0282287598           0.0257520676           -0.0312490463          0.0256929398           -0.0312099457          0.9747314453           0.0281066895           
6.8000000000           0.9748840332           0.0274963379           0.0255250931           -0.0305261612          0.0255107880           -0.0304832458          0.9749450684           0.0272827148           
6.9450000000           0.9750366211           0.0265808105           0.0253276825           -0.0298795700          0.0253448486           -0.0298414230          0.9749755859           0.0267944336           
7.0900000000           0.9750366211           0.0260314941           0.0251646042           -0.0291910172          0.0251216888           -0.0291538239          0.9752197266           0.0259704590           
7.2350000000           0.9753112793           0.0252990723           0.0249834061           -0.0285406113          0.0249300003           -0.0285663605          0.9754638672           0.0251770020           
7.3800000000           0.9754943848           0.0247802734           0.0247526169           -0.0279941559          0.0247421265           -0.0279874802          0.9757385254           0.0245666504           
7.5250000000           0.9756774902           0.0240478516           0.0245723724           -0.0274095535          0.0245857239           -0.0274286270          0.9757385254           0.0238342285           
7.6700000000           0.9759216309           0.0233459473           0.0244178772           -0.0268468857          0.0244255066           -0.0268135071          0.9759826660           0.0231628418           
7.8150000000           0.9760742188           0.0226440430           0.0242557526           -0.0262584686          0.0242357254           -0.0262651443          0.9761657715           0.0224914551           
7.9600000000           0.9761657715           0.0221557617           0.0240993500           -0.0256843567          0.0240983963           -0.0257406235          0.9761962891           0.0218811035           
8.1050000000           0.9762268066           0.0215454102           0.0239362717           -0.0251951218          0.0239439011           -0.0251970291          0.9764099121           0.0214843750           
8.2500000000           0.9766540527           0.0209960938           0.0238170624           -0.0246496201          0.0237436295           -0.0246524811          0.9765319824           0.0205078125           
8.3950000000           0.9767761230           0.0203857422           0.0236549377           -0.0241279602          0.0236043930           -0.0241680145          0.9766540527           0.0202941895           
8.5400000000           0.9768981934           0.0197448730           0.0234899521           -0.0236692429          0.0234794617           -0.0236511230          0.9769897461           0.0195922852           
8.6850000000           0.9769592285           0.0191955566           0.0233488083           -0.0232038498          0.0233297348           -0.0231599808          0.9770507813           0.0192565918           
8.8300000000           0.9770507813           0.0187072754           0.0232238770           -0.0227365494          0.0231885910           -0.0227203369          0.9772033691           0.0184020996           
8.9750000000           0.9772338867           0.0181274414           0.0230855942           -0.0222263336          0.0230417252           -0.0222320557          0.9771728516           0.0181579590           
9.1200000000           0.9772949219           0.0176391602           0.0229434967           -0.0218210220          0.0229215622           -0.0217866898          0.9776000977           0.0175476074           
9.2650000000           0.9776000977           0.0170898438           0.0228023529           -0.0213651657          0.0227584839           -0.0213241577          0.9776000977           0.0171203613           
9.4100000000           0.9775695801           0.0166625977           0.0227165222           -0.0209264755          0.0226182938           -0.0208759308          0.9777221680           0.0166625977           
9.5550000000           0.9777832031           0.0161743164           0.0225534439           -0.0205039978          0.0225210190           -0.0204963684          0.9777526855           0.0161132813           
9.7000000000           0.9778442383           0.0158081055           0.0224199295           -0.0200853348          0.0224132538           -0.0200386047          0.9778137207           0.0155334473           
9.8450000000           0.9780273438           0.0153198242           0.0223093033           -0.0196599960          0.0222291946           -0.0196371078          0.9781188965           0.0150146484           
9.9900000000           0.9780883789           0.0148010254           0.0221967697           -0.0192222595          0.0221138000           -0.0192451477          0.9781494141           0.0147094727           
10.1350000000          0.9781494141           0.0143432617           0.0220966339           -0.0188417435          0.0220432281           -0.0188169479          0.9782714844           0.0142822266           
10.2800000000          0.9783020020           0.0139770508           0.0219440460           -0.0184564590          0.0219011307           -0.0184516907          0.9784851074           0.0138244629           
10.4250000000          0.9783630371           0.0133972168           0.0218458176           -0.0180482864          0.0218153000           -0.0180549622          0.9784240723           0.0133666992           
10.5700000000          0.9786071777           0.0130920410           0.0217008591           -0.0176734924          0.0216913223           -0.0177059174          0.9786987305           0.0127563477           
10.7150000000          0.9785766602           0.0125122070           0.0216236115           -0.0173034668          0.0216159821           -0.0173110962          0.9787902832           0.0122375488           
10.8600000000          0.9785766602           0.0121765137           0.0214719772           -0.0169372559          0.0214700699           -0.0169239044          0.9787902832           0.0119323730           
11.0050000000          0.9787597656           0.0118408203           0.0213708878           -0.0165224075          0.0213632584           -0.0165929794          0.9790649414           0.0115051270           
11.1500000000          0.9787902832           0.0114135742           0.0212879181           -0.0162172318          0.0212955475           -0.0162343979          0.9791564941           0.0108947754           
11.2950000000          0.9790344238           0.0108642578           0.0211706161           -0.0158472061          0.0211782455           -0.0158452988          0.9790954590           0.0107116699           
11.4400000000          0.9789733887           0.0104064941           0.0211029053           -0.0155086517          0.0210676193           -0.0155057907          0.9791564941           0.0101318359           
11.5850000000          0.9791870117           0.0101928711           0.0209741592           -0.0151729584          0.0209722519           -0.0151548386          0.9792785645           0.0098266602           
11.7300000000          0.9793395996           0.0097045898           0.0209302902           -0.0148677826          0.0208673477           -0.0148296356          0.9792480469           0.0094909668           
11.8750000000          0.9793701172           0.0093383789           0.0208024979           -0.0144872665          0.0208473206           -0.0145254135          0.9796447754           0.0090026855           
12.0200000000          0.9794616699           0.0089111328           0.0207290649           -0.0141782761          0.0207300186           -0.0141935349          0.9795227051           0.0086364746           
12.1650000000          0.9795837402           0.0084838867           0.0206470490           -0.0138597488          0.0206546783           -0.0138750076          0.9796752930           0.0084838867           
12.3100000000          0.9796752930           0.0081176758           0.0205678940           -0.0135393143          0.0205602646           -0.0135211945          0.9797973633           0.0076904297           
12.4550000000          0.9795227051           0.0078125000           0.0204906464           -0.0132083893          0.0204544067           -0.0132255554          0.9797973633           0.0077514648           
12.6000000000          0.9797668457           0.0074462891           0.0204238892           -0.0128936768          0.0203943253           -0.0128917694          0.9799804688           0.0069580078           
12.7450000000          0.9799499512           0.0071105957           0.0203247070           -0.0125980377          0.0203065872           -0.0125923157          0.9799194336           0.0066528320           
12.8900000000          0.9799194336           0.0067443848           0.0202684402           -0.0122404099          0.0202474594           -0.0122795105          0.9801635742           0.0061645508           
13.0350000000          0.9801330566           0.0062561035           0.0201702118           -0.0119676590          0.0201444626           -0.0120086670          0.9802551270           0.0058593750           
13.1800000000          0.9801940918           0.0060119629           0.0200815201           -0.0116653442          0.0200719833           -0.0116996765          0.9802551270           0.0055541992           
13.3250000000          0.9801940918           0.0058288574           0.0200185776           -0.0113582611          0.0199880600           -0.0114221573          0.9802551270           0.0050964355           
13.4700000000          0.9803161621           0.0052490234           0.0199537277           -0.0110998154          0.0199470520           -0.0111131668          0.9802246094           0.0049743652           
13.6150000000          0.9804382324           0.0047607422           0.0198936462           -0.0107889175          0.0198688507           -0.0108222961          0.9804077148           0.0044860840           
13.7600000000          0.9803466797           0.0043334961           0.0198326111           -0.0105400085          0.0197877884           -0.0105371475          0.9804687500           0.0041809082           
13.9050000000          0.9804687500           0.0042724609           0.0197887421           -0.0102453232          0.0197467804           -0.0102367401          0.9807128906           0.0038452148           
14.0500000000          0.9803466797           0.0037841797           0.0197172165           -0.0099401474          0.0196790695           -0.0099458694          0.9804687500           0.0034790039           
14.1950000000          0.9806213379           0.0035400391           0.0196609497           -0.0097017288          0.0196304321           -0.0096740723          0.9806823730           0.0034179688           
14.3400000000          0.9805603027           0.0031738281           0.0195970535           -0.0093936920          0.0195474625           -0.0094070435          0.9806518555           0.0031127930           
14.4850000000          0.9806518555           0.0028686523           0.0195198059           -0.0091438293          0.0195169449           -0.0091247559          0.9808349609           0.0024414063           
14.6300000000          0.9807128906           0.0025329590           0.0194501877           -0.0088930130          0.0194311142           -0.0088500977          0.9807128906           0.0023193359           
